  can0  204   [8]  C6 C3 C6 C6 FF FF FF FF
  can0  680   [3]  48 FF 00
  can0  203   [8]  C3 C6 C0 C0 C3 C6 C6 C6
  can0  1806E5F4   [8]  04 98 00 A4 01 00 00 00
  can0       681   [7]  00 00 00 00 01 00 00
  can0       202   [8]  C6 C6 C6 C6 C6 C6 C6 C3
  can0       680   [3]  25 FF 28
  can0       201   [8]  C6 C0 C6 C6 C6 C6 C6 C6
  can0       680   [3]  1E FF E7
  can0       200   [8]  00 C6 97 97 00 07 08 08
  can0       500   [8]  45 4C 49 54 48 49 4F 4E
  can0       501   [8]  32 43 4E 46 32 2E 33 35
  can0       502   [7]  00 01 35 22 00 00 02
  can0       503   [6]  00 6F 27 13 27 1B
  can0       504   [6]  00 00 00 10 00 1D
  can0       505   [8]  00 00 00 00 00 00 00 04
  can0       506   [7]  28 00 8A 00 E6 00 64
  can0       507   [6]  16 00 15 14 17 1A
  can0       508   [6]  00 00 00 1B 00 00
  can0       204   [8]  C6 C3 C6 C6 FF FF FF FF
  can0       680   [3]  48 FF 00
  can0       203   [8]  C3 C6 C0 C0 C3 C6 C6 C6
  can0  1806E5F4   [8]  04 98 00 A4 01 00 00 00
  can0       681   [7]  00 00 00 00 01 00 00
  can0       202   [8]  C6 C6 C6 C6 C6 C6 C6 C3
  can0       680   [3]  25 FF 28
  can0       201   [8]  C6 C0 C6 C6 C6 C6 C6 C6
  can0       680   [3]  1E FF E7
  can0       200   [8]  01 C0 97 97 00 07 08 08
  can0       500   [8]  45 4C 49 54 48 49 4F 4E
  can0       501   [8]  32 43 4E 46 32 2E 33 35
  can0       502   [7]  00 01 36 22 00 00 02
  can0       503   [6]  00 6F 27 13 27 1B
  can0       504   [6]  00 00 00 10 00 1D
  can0       505   [8]  00 00 00 00 00 00 00 04
  can0       506   [7]  28 00 8A 00 E6 00 64
  can0       507   [6]  16 00 15 14 17 1A
  can0       508   [6]  00 00 00 1B 00 00
  can0       204   [8]  C6 C3 C6 C6 FF FF FF FF
  can0       680   [3]  48 FF 00
  can0       203   [8]  C3 C6 C0 C0 C3 C3 C6 C6
  can0  1806E5F4   [8]  04 98 00 A4 01 00 00 00
  can0       681   [7]  00 00 00 00 01 00 00
  can0       202   [8]  C6 C6 C6 C6 C6 C6 C6 C3
  can0       680   [3]  25 FF 28
  can0       201   [8]  C6 C0 C6 C6 C6 C6 C6 C6
  can0       680   [3]  1E FF E7
  can0       200   [8]  02 C6 97 97 00 07 08 08
  can0       500   [8]  45 4C 49 54 48 49 4F 4E
  can0       501   [8]  32 43 4E 46 32 2E 33 35
  can0       502   [7]  00 01 37 22 00 00 02
  can0       503   [6]  00 6F 27 13 27 1B
  can0       504   [6]  00 00 00 10 00 1D
  can0       505   [8]  00 00 00 00 00 00 00 04
  can0       506   [7]  28 00 8A 00 E6 00 64
  can0       507   [6]  16 00 15 14 17 1A
  can0       508   [6]  00 00 00 1B 00 00
  can0       204   [8]  C6 C3 C6 C6 FF FF FF FF
  can0       680   [3]  48 FF 00
  can0       203   [8]  C3 C6 C0 C0 C3 C6 C6 C6
  can0  1806E5F4   [8]  04 98 00 A4 01 00 00 00
  can0       681   [7]  00 00 00 00 01 00 00
  can0       202   [8]  C6 C6 C6 C6 C6 C6 C6 C3
  can0       680   [3]  25 FF 28
  can0       201   [8]  C6 C0 C6 C6 C6 C6 C6 C6
  can0       680   [3]  1E FF E7
  can0       200   [8]  03 C6 97 97 00 07 08 08
  can0       500   [8]  45 4C 49 54 48 49 4F 4E
  can0       501   [8]  32 43 4E 46 32 2E 33 35
  can0       502   [7]  00 01 38 22 00 00 02
  can0       503   [6]  00 6F 27 13 27 1B
  can0       504   [6]  00 00 00 10 00 1D
  can0       505   [8]  00 00 00 00 00 00 00 04
  can0       506   [7]  28 00 8A 00 E6 00 64
  can0       507   [6]  16 00 15 14 17 1A
  can0       508   [6]  00 00 00 1B 00 00
  can0       204   [8]  C6 C3 C6 C6 FF FF FF FF
  can0       680   [3]  48 FF 00
  can0       203   [8]  C3 C6 C0 C0 C3 C6 C6 C6
  can0  1806E5F4   [8]  04 98 00 A4 01 00 00 00
  can0       681   [7]  00 00 00 00 01 00 00
  can0       202   [8]  C6 C6 C6 C6 C6 C6 C6 C3
  can0       680   [3]  25 FF 28
  can0       201   [8]  C6 C0 C6 C6 C6 C6 C6 C6
  can0       680   [3]  1E FF E7
  can0       200   [8]  04 C6 97 97 00 07 08 08
  can0       500   [8]  45 4C 49 54 48 49 4F 4E
  can0       501   [8]  32 43 4E 46 32 2E 33 35
  can0       502   [7]  00 01 39 22 00 00 02
  can0       503   [6]  00 6F 27 13 27 1B
  can0       504   [6]  00 00 00 10 00 1D
  can0       505   [8]  00 00 00 00 00 00 00 04
  can0       506   [7]  28 00 8A 00 E6 00 64
  can0       507   [6]  16 00 15 14 17 1A
  can0       508   [6]  00 00 00 1B 00 00
  can0       204   [8]  C6 C3 C6 C6 FF FF FF FF
  can0       680   [3]  48 FF 00
  can0       203   [8]  C3 C6 C0 C0 C3 C6 C6 C6
  can0  1806E5F4   [8]  04 98 00 A4 01 00 00 00
  can0       681   [7]  00 00 00 00 01 00 00
  can0       202   [8]  C6 C6 C6 C6 C6 C6 C6 C3
  can0       680   [3]  25 FF 28
  can0       201   [8]  C6 C0 C6 C6 C6 C6 C6 C6
  can0       680   [3]  1E FF E7
  can0       200   [8]  05 C6 97 97 00 07 08 08
  can0       500   [8]  45 4C 49 54 48 49 4F 4E
  can0       501   [8]  32 43 4E 46 32 2E 33 35
  can0       502   [7]  00 01 3A 22 00 00 02
  can0       503   [6]  00 6F 27 13 27 1B
  can0       504   [6]  00 00 00 10 00 1D
  can0       505   [8]  00 00 00 00 00 00 00 04
  can0       506   [7]  28 00 8A 00 E6 00 64
  can0       507   [6]  16 00 15 14 17 1A
  can0       508   [6]  00 00 00 1B 00 00
  can0       204   [8]  C6 C3 C6 C6 FF FF FF FF
  can0       680   [3]  48 FF 00
  can0       203   [8]  C3 C6 C0 C0 C3 C6 C6 C6
  can0  1806E5F4   [8]  04 98 00 A4 01 00 00 00
  can0       681   [7]  00 00 00 00 01 00 00
  can0       202   [8]  C6 C6 C6 C6 C6 C6 C6 C3
  can0       680   [3]  25 FF 28
  can0       201   [8]  C6 C0 C6 C6 C6 C6 C6 C6
  can0       680   [3]  1E FF E7
  can0       200   [8]  06 C6 96 96 00 07 08 08
  can0       500   [8]  45 4C 49 54 48 49 4F 4E
  can0       501   [8]  32 43 4E 46 32 2E 33 35
  can0       502   [7]  00 01 3B 22 00 00 02
  can0       503   [6]  00 6F 27 13 27 1B
  can0       504   [6]  00 00 00 10 00 1D
  can0       505   [8]  00 00 00 00 00 00 00 04
  can0       506   [7]  28 00 8A 00 E6 00 64
  can0       507   [6]  16 00 15 14 17 1A
  can0       508   [6]  00 00 00 1B 00 00
  can0       204   [8]  C6 C3 C6 C6 FF FF FF FF
  can0       680   [3]  48 FF 00
  can0       203   [8]  C3 C6 C0 C0 C3 C3 C6 C6
  can0  1806E5F4   [8]  04 98 00 A4 01 00 00 00
  can0       681   [7]  00 00 00 00 01 00 00
  can0       202   [8]  C6 C6 C6 C6 C6 C6 C6 C3
  can0       680   [3]  25 FF 28
  can0       201   [8]  C6 C0 C6 C6 C6 C6 C6 C6
  can0       680   [3]  1E FF E7
  can0       200   [8]  07 C6 96 96 00 07 08 08
  can0       500   [8]  45 4C 49 54 48 49 4F 4E
  can0       501   [8]  32 43 4E 46 32 2E 33 35
  can0       502   [7]  00 01 3C 22 00 00 02
  can0       503   [6]  00 6F 27 13 27 1B
  can0       504   [6]  00 00 00 10 00 1D
  can0       505   [8]  00 00 00 00 00 00 00 04
  can0       506   [7]  28 00 8A 00 E6 00 64
  can0       507   [6]  16 00 15 14 17 1A
  can0       508   [6]  00 00 00 1B 00 00
  can0       204   [8]  C6 C3 C6 C6 FF FF FF FF
  can0       680   [3]  48 FF 00
  can0       203   [8]  C3 C6 C0 C0 C3 C3 C6 C6
  can0  1806E5F4   [8]  04 98 00 A4 01 00 00 00
  can0       681   [7]  00 00 00 00 01 00 00
  can0       202   [8]  C6 C6 C6 C6 C6 C6 C6 C3
  can0       680   [3]  25 FF 28
  can0       201   [8]  C6 C0 C6 C6 C6 C6 C6 C6
  can0       680   [3]  1E FF E7
  can0       200   [8]  08 C6 96 96 00 07 08 08
  can0       500   [8]  45 4C 49 54 48 49 4F 4E
  can0       501   [8]  32 43 4E 46 32 2E 33 35
  can0       502   [7]  00 01 3D 22 00 00 02
  can0       503   [6]  00 6F 27 13 27 1B
  can0       504   [6]  00 00 00 10 00 1D
  can0       505   [8]  00 00 00 00 00 00 00 04
  can0       506   [7]  28 00 8A 00 E6 00 64
  can0       507   [6]  16 00 15 14 17 1A
  can0       508   [6]  00 00 00 1B 00 00
  can0       204   [8]  C6 C3 C6 C6 FF FF FF FF
  can0       680   [3]  48 FF 00
  can0       203   [8]  C3 C6 C0 C0 C3 C6 C6 C6
  can0  1806E5F4   [8]  04 98 00 A4 01 00 00 00
  can0       681   [7]  00 00 00 00 01 00 00
  can0       202   [8]  C6 C6 C6 C6 C6 C6 C6 C3
  can0       680   [3]  25 FF 28
  can0       201   [8]  C6 C0 C6 C6 C6 C6 C6 C6
  can0       680   [3]  1E FF E7
  can0       200   [8]  09 C6 95 95 00 07 08 08
  can0       500   [8]  45 4C 49 54 48 49 4F 4E
  can0       501   [8]  32 43 4E 46 32 2E 33 35
  can0       502   [7]  00 01 3E 22 00 00 02
  can0       503   [6]  00 6F 27 13 27 1B
  can0       504   [6]  00 00 00 10 00 1D
  can0       505   [8]  00 00 00 00 00 00 00 04
  can0       506   [7]  28 00 8A 00 E6 00 64
  can0       507   [6]  16 00 15 14 17 1A
  can0       508   [6]  00 00 00 1B 00 00
  can0       204   [8]  C6 C3 C6 C3 FF FF FF FF
  can0       680   [3]  48 FF 00
  can0       203   [8]  C3 C6 C0 C0 C3 C6 C6 C6
  can0  1806E5F4   [8]  04 98 00 A4 01 00 00 00
  can0       681   [7]  00 00 00 00 01 00 00
  can0       202   [8]  C6 C6 C6 C6 C6 C6 C6 C3
  can0       680   [3]  25 FF 28
  can0       201   [8]  C6 C0 C6 C6 C6 C6 C6 C6
  can0       680   [3]  1E FF E7
  can0       200   [8]  0A C6 96 96 00 07 08 08
  can0       500   [8]  45 4C 49 54 48 49 4F 4E
  can0       501   [8]  32 43 4E 46 32 2E 33 35
  can0       502   [7]  00 01 3F 22 00 00 02
  can0       503   [6]  00 6F 27 13 27 1A
  can0       504   [6]  00 00 00 10 00 1D
  can0       505   [8]  00 00 00 00 00 00 00 04
  can0       506   [7]  28 00 8A 00 E6 00 64
  can0       507   [6]  16 00 15 14 17 1A
  can0       508   [6]  00 00 00 1B 00 00
  can0       204   [8]  C6 C3 C6 C6 FF FF FF FF
  can0       680   [3]  48 FF 00
  can0       203   [8]  C3 C6 C0 C0 C3 C6 C6 C6
  can0  1806E5F4   [8]  04 98 00 A4 01 00 00 00
  can0       681   [7]  00 00 00 00 01 00 00
  can0       202   [8]  C6 C6 C6 C6 C6 C6 C6 C3
  can0       680   [3]  25 FF 28
  can0       201   [8]  C6 C0 C6 C6 C6 C6 C6 C6
  can0       680   [3]  1E FF E7
  can0       200   [8]  0B C6 96 96 00 07 08 08
